
**** 07/02/110 15:50:55 ******** NT Evaluation PSpice (July 1997) ************

 * C:\Users\Tiago\Desktop\EE530\pspice\tcs530\Lab4\Q1\Q1b.sch


 ****     CIRCUIT DESCRIPTION


******************************************************************************




* Schematics Version 8.0 - July 1997
* Fri Jul 02 14:23:49 2010



** Analysis setup **
.ac DEC 101 1000 10000K
.tran 20ns 10ms
.OP 


* From [SCHEMATICS NETLIST] section of msim.ini:
.lib nom.lib

.INC "Q1b.net"

**** INCLUDING Q1b.net ****
* Schematics Netlist *



V_V6         VCC 0 10V
V_V7         0 VEE 10V
V_V5         $N_0001 0  AC 1
+SIN 0 1 1000 0 0 0
Q_Q2         $N_0002 0 $N_0003 Q2N2222
R_R2         VCC $N_0002  5152  
I_I1         $N_0003 VEE DC 1.941mA  
R_R1         VCC $N_0004  5152  
Q_Q1         $N_0004 $N_0001 $N_0003 Q2N2222

**** RESUMING Q1b.cir ****
.INC "Q1b.als"



**** INCLUDING Q1b.als ****
* Schematics Aliases *

.ALIASES
V_V6            V6(+=VCC -=0 )
V_V7            V7(+=0 -=VEE )
V_V5            V5(+=$N_0001 -=0 )
Q_Q2            Q2(c=$N_0002 b=0 e=$N_0003 )
R_R2            R2(1=VCC 2=$N_0002 )
I_I1            I1(+=$N_0003 -=VEE )
R_R1            R1(1=VCC 2=$N_0004 )
Q_Q1            Q1(c=$N_0004 b=$N_0001 e=$N_0003 )
_    _(VEE=VEE)
_    _(VCC=VCC)
.ENDALIASES


**** RESUMING Q1b.cir ****
.probe


.END

**** 07/02/110 15:50:55 ******** NT Evaluation PSpice (July 1997) ************

 * C:\Users\Tiago\Desktop\EE530\pspice\tcs530\Lab4\Q1\Q1b.sch


 ****     BJT MODEL PARAMETERS


******************************************************************************




               Q2N2222         
               NPN             
          IS   14.340000E-15 
          BF  255.9          
          NF    1            
         VAF   74.03         
         IKF     .2847       
         ISE   14.340000E-15 
          NE    1.307        
          BR    6.092        
          NR    1            
          RB   10            
          RC    1            
         CJE   22.010000E-12 
         MJE     .377        
         CJC    7.306000E-12 
         MJC     .3416       
          TF  411.100000E-12 
         XTF    3            
         VTF    1.7          
         ITF     .6          
          TR   46.910000E-09 
         XTB    1.5          


**** 07/02/110 15:50:55 ******** NT Evaluation PSpice (July 1997) ************

 * C:\Users\Tiago\Desktop\EE530\pspice\tcs530\Lab4\Q1\Q1b.sch


 ****     SMALL SIGNAL BIAS SOLUTION       TEMPERATURE =   27.000 DEG C


******************************************************************************



 NODE   VOLTAGE     NODE   VOLTAGE     NODE   VOLTAGE     NODE   VOLTAGE


(  VCC)   10.0000  (  VEE)  -10.0000  ($N_0001)    0.0000                       

($N_0002)    5.0318                   ($N_0003)    -.6433                       

($N_0004)    5.0318                   




    VOLTAGE SOURCE CURRENTS
    NAME         CURRENT

    V_V6        -1.929E-03
    V_V7        -1.941E-03
    V_V5        -6.171E-06

    TOTAL POWER DISSIPATION   3.87E-02  WATTS


**** 07/02/110 15:50:55 ******** NT Evaluation PSpice (July 1997) ************

 * C:\Users\Tiago\Desktop\EE530\pspice\tcs530\Lab4\Q1\Q1b.sch


 ****     OPERATING POINT INFORMATION      TEMPERATURE =   27.000 DEG C


******************************************************************************






**** BIPOLAR JUNCTION TRANSISTORS


NAME         Q_Q2        Q_Q1      
MODEL        Q2N2222     Q2N2222   
IB           6.17E-06    6.17E-06 
IC           9.64E-04    9.64E-04 
VBE          6.43E-01    6.43E-01 
VBC         -5.03E+00   -5.03E+00 
VCE          5.68E+00    5.68E+00 
BETADC       1.56E+02    1.56E+02 
GM           3.72E-02    3.72E-02 
RPI          4.66E+03    4.66E+03 
RX           1.00E+01    1.00E+01 
RO           8.20E+04    8.20E+04 
CBE          5.16E-11    5.16E-11 
CBC          3.64E-12    3.64E-12 
CJS          0.00E+00    0.00E+00 
BETAAC       1.73E+02    1.73E+02 
CBX          0.00E+00    0.00E+00 
FT           1.07E+08    1.07E+08 


**** 07/02/110 15:50:55 ******** NT Evaluation PSpice (July 1997) ************

 * C:\Users\Tiago\Desktop\EE530\pspice\tcs530\Lab4\Q1\Q1b.sch


 ****     INITIAL TRANSIENT SOLUTION       TEMPERATURE =   27.000 DEG C


******************************************************************************



 NODE   VOLTAGE     NODE   VOLTAGE     NODE   VOLTAGE     NODE   VOLTAGE


(  VCC)   10.0000  (  VEE)  -10.0000  ($N_0001)    0.0000                       

($N_0002)    5.0318                   ($N_0003)    -.6433                       

($N_0004)    5.0318                   




    VOLTAGE SOURCE CURRENTS
    NAME         CURRENT

    V_V6        -1.929E-03
    V_V7        -1.941E-03
    V_V5        -6.171E-06

    TOTAL POWER DISSIPATION   3.87E-02  WATTS



          JOB CONCLUDED

          TOTAL JOB TIME             .27
