
**** 04/16/110 17:01:01 ******** NT Evaluation PSpice (July 1997) ************

 * C:\Users\Tiago\Documents\pspice\tcs530\Lab2\Q3\Q3\q3sq.sch


 ****     CIRCUIT DESCRIPTION


******************************************************************************




* Schematics Version 8.0 - July 1997
* Fri Apr 16 17:01:00 2010



** Analysis setup **
.tran 20ns 0.3s
.OP 


* From [SCHEMATICS NETLIST] section of msim.ini:
.lib nom.lib

.INC "q3sq.net"

**** INCLUDING q3sq.net ****
* Schematics Netlist *



D_D2         Saida $N_0001 D1N4002 
V_V1         $N_0002 0 DC 0 AC 1
+SIN 0 10 60Hz 0 0 0
C_C2         0 Saida  194.1n  
C_C1         $N_0001 $N_0002  194.1n  
D_D1         $N_0001 0 D1N4002 

**** RESUMING q3sq.cir ****
.INC "q3sq.als"



**** INCLUDING q3sq.als ****
* Schematics Aliases *

.ALIASES
D_D2            D2(1=Saida 2=$N_0001 )
V_V1            V1(+=$N_0002 -=0 )
C_C2            C2(1=0 2=Saida )
C_C1            C1(1=$N_0001 2=$N_0002 )
D_D1            D1(1=$N_0001 2=0 )
_    _(Saida=Saida)
.ENDALIASES


**** RESUMING q3sq.cir ****
.probe


.END

**** 04/16/110 17:01:01 ******** NT Evaluation PSpice (July 1997) ************

 * C:\Users\Tiago\Documents\pspice\tcs530\Lab2\Q3\Q3\q3sq.sch


 ****     Diode MODEL PARAMETERS


******************************************************************************




               D1N4002         
          IS   14.110000E-09 
           N    1.984        
         ISR  100.000000E-12 
         IKF   94.81         
          BV  100.1          
         IBV   10            
          RS     .03389      
          TT    4.761000E-06 
         CJO   51.170000E-12 
          VJ     .3905       
           M     .2762       


**** 04/16/110 17:01:01 ******** NT Evaluation PSpice (July 1997) ************

 * C:\Users\Tiago\Documents\pspice\tcs530\Lab2\Q3\Q3\q3sq.sch


 ****     SMALL SIGNAL BIAS SOLUTION       TEMPERATURE =   27.000 DEG C


******************************************************************************



 NODE   VOLTAGE     NODE   VOLTAGE     NODE   VOLTAGE     NODE   VOLTAGE


(Saida) 173.4E-15  ($N_0001) 86.72E-15                   ($N_0002)    0.0000    




    VOLTAGE SOURCE CURRENTS
    NAME         CURRENT

    V_V1         0.000E+00

    TOTAL POWER DISSIPATION   0.00E+00  WATTS


**** 04/16/110 17:01:01 ******** NT Evaluation PSpice (July 1997) ************

 * C:\Users\Tiago\Documents\pspice\tcs530\Lab2\Q3\Q3\q3sq.sch


 ****     OPERATING POINT INFORMATION      TEMPERATURE =   27.000 DEG C


******************************************************************************






**** DIODES


NAME         D_D2        D_D1      
MODEL        D1N4002     D1N4002   
ID           2.40E-20    2.40E-20 
VD           8.67E-14    8.67E-14 
REQ          3.61E+06    3.61E+06 
CAP          5.25E-11    5.25E-11 
**** 04/16/110 17:01:01 ******** NT Evaluation PSpice (July 1997) ************

 * C:\Users\Tiago\Documents\pspice\tcs530\Lab2\Q3\Q3\q3sq.sch


 ****     INITIAL TRANSIENT SOLUTION       TEMPERATURE =   27.000 DEG C


******************************************************************************



 NODE   VOLTAGE     NODE   VOLTAGE     NODE   VOLTAGE     NODE   VOLTAGE


(Saida) 173.4E-15  ($N_0001) 86.72E-15                   ($N_0002)    0.0000    




    VOLTAGE SOURCE CURRENTS
    NAME         CURRENT

    V_V1         0.000E+00

    TOTAL POWER DISSIPATION   0.00E+00  WATTS



          JOB CONCLUDED

          TOTAL JOB TIME             .16
